Circuit: * C:\Users\nick\Downloads\ELEC3400\ltspice\group_project\v8\Draft1.asc

Warning: Multiple definitions of model "aons66402" Type: Vdmos1
WARNING: Node N012 is floating.
WARNING: Node N009 is floating.
WARNING: Node N007 is floating.
WARNING: Node N004 is floating.
WARNING: Node VOUT is floating.

WARNING: Less than two connections to node VOUT.  This node is used by C8.
WARNING: Less than two connections to node NC_01.  This node is used by R28.
Direct Newton iteration failed to find .op point.  (Use ".option noopiter" to skip.)
Starting Gmin stepping
Gmin = 10
Gmin = 1.07374
Gmin = 0.115292
Gmin = 0.0123794
Gmin = 0.00132923
Gmin = 0.000142725
Gmin = 1.5325e-005
Gmin = 1.6455e-006
Gmin = 1.76685e-007
Gmin = 1.89714e-008
Gmin = 2.03704e-009
Gmin = 2.18725e-010
Gmin = 2.34854e-011
Gmin = 2.52173e-012
Gmin = 2.70769e-013
Gmin = 0
Gmin stepping succeeded in finding the operating point.

Semiconductor Device Operating Points:
                        --- Bipolar Transistors ---
Name:       q6          q5          q4          q3          q2
Model:    bc547b      bc547b      bc547b      bc547b      bc547b
Ib:       2.07e-05    3.22e-06    3.61e-06    3.61e-06    9.30e-06
Ic:       7.41e-03    1.02e-03    1.03e-03    1.02e-03    3.41e-03
Vbe:      6.88e-01    6.36e-01    6.39e-01    6.39e-01    6.65e-01
Vbc:     -1.89e+01   -7.77e+00   -6.36e-01    0.00e+00   -1.92e+01
Vce:      1.95e+01    8.40e+00    1.28e+00    6.39e-01    1.99e+01
BetaDC:   3.57e+02    3.18e+02    2.85e+02    2.82e+02    3.67e+02
Gm:       2.73e-01    3.89e-02    3.91e-02    3.87e-02    1.28e-01
Rpi:      1.26e+03    8.13e+03    7.24e+03    7.24e+03    2.81e+03
Rx:       1.00e+00    1.00e+00    1.00e+00    1.00e+00    1.00e+00
Ro:       1.09e+04    6.78e+04    6.05e+04    6.05e+04    2.37e+04
Cbe:      1.87e-10    6.16e-11    6.31e-11    6.29e-11    1.14e-10
Cbc:      7.35e-13    9.47e-13    1.74e-12    2.31e-12    7.31e-13
Cjs:      0.00e+00    0.00e+00    0.00e+00    0.00e+00    0.00e+00
BetaAC:   3.43e+02    3.16e+02    2.84e+02    2.81e+02    3.60e+02
Cbx:      4.52e-13    5.82e-13    1.07e-12    1.42e-12    4.49e-13
Ft:       2.31e+08    9.81e+07    9.45e+07    9.25e+07    1.78e+08

Name:       q1
Model:    bc547b
Ib:       9.30e-06
Ic:       3.41e-03
Vbe:      6.65e-01
Vbc:     -1.92e+01
Vce:      1.99e+01
BetaDC:   3.67e+02
Gm:       1.28e-01
Rpi:      2.81e+03
Rx:       1.00e+00
Ro:       2.37e+04
Cbe:      1.14e-10
Cbc:      7.31e-13
Cjs:      0.00e+00
BetaAC:   3.60e+02
Cbx:      4.49e-13
Ft:       1.78e+08

                        --- VDMOSFET Transistors ---
Name:          m5          m4          m3          m2          m1
Model:        bs170       bs170       bs170       bs170       bs170
Id:          1.80e-02    1.75e-02    5.12e-04    5.12e-04    1.75e-02
Vgs:         3.03e+00    3.02e+00    2.44e+00    2.44e+00    3.02e+00
Vds:         6.00e+00    6.46e+00    8.30e+00    8.30e+00    6.46e+00
Vth:         2.33e+00    2.33e+00    2.33e+00    2.33e+00    2.33e+00
Gm:          5.37e-02    5.30e-02    9.05e-03    9.05e-03    5.30e-02
Gds:         0.00e+00    0.00e+00    0.00e+00    0.00e+00    0.00e+00
Cgs:         2.80e-11    2.80e-11    2.80e-11    2.80e-11    2.80e-11
Cgd:         5.16e-12    4.88e-12    4.12e-12    4.12e-12    4.88e-12
Cbody:       1.32e-11    1.28e-11    1.15e-11    1.15e-11    1.28e-11


.step r=1000
.step r=2000
.step r=4000
.step r=8000
.step r=16000
.step r=32000
.step r=64000
.step r=100000

Date: Tue May 18 19:30:07 2021
Total elapsed time: 0.342 seconds.

tnom = 27
temp = 27
method = trap
totiter = 477
traniter = 0
tranpoints = 0
accept = 0
rejected = 0
matrix size = 71
fillins = 30
solver = Normal
Matrix Compiler1:     370 opcodes
Matrix Compiler2: 7.06 KB object code size  0.5/0.8/[0.6]

