Circuit: * C:\Users\nick\Downloads\ELEC3400\LTSpice\Lab4\Draft1.asc

Early termination of direct N-R iteration.
Direct Newton iteration failed to find .op point.  (Use ".option noopiter" to skip.)
Starting Gmin stepping
Gmin = 10
vernier = 0.5
vernier = 0.25
vernier = 0.125
Gmin = 5.5165
vernier = 0.0625
vernier = 0.03125
vernier = 0.015625
vernier = 0.0078125
Gmin = 5.49501
vernier = 0.00390625
vernier = 0.00195313
vernier = 0.000976563
vernier = 0.000488281
Gmin = 5.50104
Gmin = 0
Gmin stepping failed

Starting source stepping with srcstepmethod=0
Source Step = 3.0303%
Source Step = 33.3333%
Source Step = 63.6364%
Source Step = 93.9394%
Source stepping succeeded in finding the operating point.

Semiconductor Device Operating Points:
                        --- Diodes ---
Name:    d:u4:p      d:u4:ln     d:u4:lp     d:u4:e      d:u4:c
Model:    u4:dx       u4:dx       u4:dx       u4:dx       u4:dx
Id:     -3.00e-11   -2.50e-11   -2.50e-11   -1.28e-11   -1.28e-11
Vd:     -3.00e+01   -2.50e+01   -2.50e+01   -1.28e+01   -1.28e+01
Req:     1.00e+12    1.00e+12    1.00e+12    1.00e+12    1.00e+12
CAP:     0.00e+00    0.00e+00    0.00e+00    0.00e+00    0.00e+00

Name:    d:u7:p      d:u7:ln     d:u7:lp     d:u7:e      d:u7:c
Model:    u7:dx       u7:dx       u7:dx       u7:dx       u7:dx
Id:     -3.00e-11   -2.50e-11   -2.50e-11   -1.28e-11   -1.28e-11
Vd:     -3.00e+01   -2.50e+01   -2.50e+01   -1.28e+01   -1.28e+01
Req:     1.00e+12    1.00e+12    1.00e+12    1.00e+12    1.00e+12
CAP:     0.00e+00    0.00e+00    0.00e+00    0.00e+00    0.00e+00

Name:    d:u2:p      d:u2:ln     d:u2:lp     d:u2:e      d:u2:c
Model:    u2:dx       u2:dx       u2:dx       u2:dx       u2:dx
Id:     -3.00e-11   -2.54e-11   -2.46e-11   -2.03e-11   -5.30e-12
Vd:     -3.00e+01   -2.54e+01   -2.46e+01   -2.03e+01   -5.30e+00
Req:     1.00e+12    1.00e+12    1.00e+12    1.00e+12    1.00e+12
CAP:     0.00e+00    0.00e+00    0.00e+00    0.00e+00    0.00e+00

Name:    d:u1:p      d:u1:ln     d:u1:lp     d:u1:e      d:u1:c
Model:    u1:dx       u1:dx       u1:dx       u1:dx       u1:dx
Id:     -3.00e-11   -2.54e-11   -2.46e-11   -2.03e-11   -5.30e-12
Vd:     -3.00e+01   -2.54e+01   -2.46e+01   -2.03e+01   -5.30e+00
Req:     1.00e+12    1.00e+12    1.00e+12    1.00e+12    1.00e+12
CAP:     0.00e+00    0.00e+00    0.00e+00    0.00e+00    0.00e+00

Name:    d:u3:p      d:u3:ln     d:u3:lp     d:u3:e      d:u3:c
Model:    u3:dx       u3:dx       u3:dx       u3:dx       u3:dx
Id:     -3.00e-11   -2.46e-11   -2.54e-11   -1.28e-11   -1.28e-11
Vd:     -3.00e+01   -2.46e+01   -2.54e+01   -1.28e+01   -1.28e+01
Req:     1.00e+12    1.00e+12    1.00e+12    1.00e+12    1.00e+12
CAP:     0.00e+00    0.00e+00    0.00e+00    0.00e+00    0.00e+00

                        --- JFET Transistors ---
Name:    j:u4:2      j:u4:1      j:u7:2      j:u7:1      j:u2:2
Model:    u4:jx       u4:jx       u7:jx       u7:jx       u2:jx
Id:     -9.77e-05   -9.77e-05   -9.77e-05   -9.77e-05   -9.40e-05
Vgs:     3.99e-01    3.99e-01    3.99e-01    3.99e-01    4.10e-01
Vds:    -1.43e+01   -1.43e+01   -1.43e+01   -1.43e+01   -2.18e+01
Gm:      3.25e-04    3.25e-04    3.25e-04    3.25e-04    3.19e-04
Gds:     0.00e+00    0.00e+00    0.00e+00    0.00e+00    0.00e+00
Cgs:     0.00e+00    0.00e+00    0.00e+00    0.00e+00    0.00e+00
Cgd:     0.00e+00    0.00e+00    0.00e+00    0.00e+00    0.00e+00

Name:    j:u2:1      j:u1:2      j:u1:1      j:u3:2      j:u3:1
Model:    u2:jx       u1:jx       u1:jx       u3:jx       u3:jx
Id:     -9.41e-05   -9.40e-05   -9.41e-05   -9.59e-05   -9.59e-05
Vgs:     4.10e-01    4.10e-01    4.10e-01    4.04e-01    4.04e-01
Vds:    -2.18e+01   -2.18e+01   -2.18e+01   -1.80e+01   -1.80e+01
Gm:      3.19e-04    3.19e-04    3.19e-04    3.22e-04    3.22e-04
Gds:     0.00e+00    0.00e+00    0.00e+00    0.00e+00    0.00e+00
Cgs:     0.00e+00    0.00e+00    0.00e+00    0.00e+00    0.00e+00
Cgd:     0.00e+00    0.00e+00    0.00e+00    0.00e+00    0.00e+00



Date: Thu Apr 29 11:59:47 2021
Total elapsed time: 28.909 seconds.

tnom = 27
temp = 27
method = trap
totiter = 1668
traniter = 0
tranpoints = 0
accept = 0
rejected = 0
matrix size = 127
fillins = 1341
solver = Normal

